<h1 style="color:black;" id='2.命令' align='center'>2.命令</h1><div>
	<table border='1' style="width:100%; color:white; background:black">
		<tr>
			<th style="width:16%">id</th>
			<th style="width:16%">设备id</th>
			<th style="width:16%">描述</th>
			<th style="width:16%">命令</th>
			<th style="width:16%">数据解析方式</th>
		</tr>
	</table>
	<div style="overflow:auto; width:100%; color:black">
		<table border='1' width='100%'>
			<tr>
				<td style="width:16%">1</td>
				<td style="width:16%">(null)</td>
				<td style="width:16%">预留</td>
				<td style="width:16%">(null)</td>
				<td style="width:16%">(null)</td>
			</tr>
			<tr>
				<td style="width:16%">2</td>
				<td style="width:16%">2</td>
				<td style="width:16%">国安sga</td>
				<td style="width:16%">01 03 05 00 00 32 C4 D3</td>
				<td style="width:16%">(null)</td>
			</tr>
			<tr>
				<td style="width:16%">3</td>
				<td style="width:16%">4</td>
				<td style="width:16%">环境遥信</td>
				<td style="width:16%">01 04 00 c8 00 14 71 fb</td>
				<td style="width:16%">(null)</td>
			</tr>
			<tr>
				<td style="width:16%">4</td>
				<td style="width:16%">4</td>
				<td style="width:16%">环境遥测</td>
				<td style="width:16%">01 04 00 00 00 0f b0 0e</td>
				<td style="width:16%">(null)</td>
			</tr>
			<tr>
				<td style="width:16%">5</td>
				<td style="width:16%">6</td>
				<td style="width:16%">机械特性-常州</td>
				<td style="width:16%">(null)</td>
				<td style="width:16%">(null)</td>
			</tr>
			<tr>
				<td style="width:16%">6</td>
				<td style="width:16%">14</td>
				<td style="width:16%">海康门禁</td>
				<td style="width:16%">admin;hxhy12345</td>
				<td style="width:16%">(null)</td>
			</tr>
			<tr>
				<td style="width:16%">7</td>
				<td style="width:16%">43</td>
				<td style="width:16%">微辰主机1</td>
				<td style="width:16%">(null)</td>
				<td style="width:16%">(null)</td>
			</tr>
			<tr>
				<td style="width:16%">8</td>
				<td style="width:16%">44</td>
				<td style="width:16%">智瞻主机</td>
				<td style="width:16%">(null)</td>
				<td style="width:16%">(null)</td>
			</tr>
			<tr>
				<td style="width:16%">9</td>
				<td style="width:16%">11</td>
				<td style="width:16%">局放-保定嘉诚</td>
				<td style="width:16%">/discharge/AlarmData</td>
				<td style="width:16%">(null)</td>
			</tr>
			<tr>
				<td style="width:16%">10</td>
				<td style="width:16%">10</td>
				<td style="width:16%">局放-陕西公众</td>
				<td style="width:16%">/ts/pd/AlarmData</td>
				<td style="width:16%">(null)</td>
			</tr>
			<tr>
				<td style="width:16%">11</td>
				<td style="width:16%">1</td>
				<td style="width:16%">一多</td>
				<td style="width:16%">04 03 00 03 00 0a 35 98</td>
				<td style="width:16%">(null)</td>
			</tr>
			<tr>
				<td style="width:16%">12</td>
				<td style="width:16%">3</td>
				<td style="width:16%">休普温度</td>
				<td style="width:16%">02 03 00 01 00 06 94 3b</td>
				<td style="width:16%">(null)</td>
			</tr>
			<tr>
				<td style="width:16%">13</td>
				<td style="width:16%">5</td>
				<td style="width:16%">休普温湿度</td>
				<td style="width:16%">01 03 00 00 00 08 44 0c</td>
				<td style="width:16%">(null)</td>
			</tr>
			<tr>
				<td style="width:16%">14</td>
				<td style="width:16%">9</td>
				<td style="width:16%">中控门禁</td>
				<td style="width:16%">(null)</td>
				<td style="width:16%">(null)</td>
			</tr>
			<tr>
				<td style="width:16%">15</td>
				<td style="width:16%">12</td>
				<td style="width:16%">微辰主机</td>
				<td style="width:16%">(null)</td>
				<td style="width:16%">(null)</td>
			</tr>
			<tr>
				<td style="width:16%">16</td>
				<td style="width:16%">16</td>
				<td style="width:16%">网关本体1</td>
				<td style="width:16%">ifconfig eth0:1 192.168.0.177</td>
				<td style="width:16%">(null)</td>
			</tr>
			<tr>
				<td style="width:16%">17</td>
				<td style="width:16%">16</td>
				<td style="width:16%">网关本体2</td>
				<td style="width:16%">ifconfig eth2:1 192.168.22.177</td>
				<td style="width:16%">(null)</td>
			</tr>
			<tr>
				<td style="width:16%">18</td>
				<td style="width:16%">13</td>
				<td style="width:16%">慧智神光</td>
				<td style="width:16%">4444</td>
				<td style="width:16%">(null)</td>
			</tr>
			<tr>
				<td style="width:16%">19</td>
				<td style="width:16%">32</td>
				<td style="width:16%">测试</td>
				<td style="width:16%">1;20</td>
				<td style="width:16%">(null)</td>
			</tr>
			<tr>
				<td style="width:16%">20</td>
				<td style="width:16%">32</td>
				<td style="width:16%">测试2</td>
				<td style="width:16%">3;3000</td>
				<td style="width:16%">(null)</td>
			</tr>
			<tr>
				<td style="width:16%">21</td>
				<td style="width:16%">11</td>
				<td style="width:16%">局放-保定嘉诚1</td>
				<td style="width:16%">/discharge/RTData</td>
				<td style="width:16%">(null)</td>
			</tr>
			<tr>
				<td style="width:16%">22</td>
				<td style="width:16%">10</td>
				<td style="width:16%">局放-陕西公众2</td>
				<td style="width:16%">/ts/pd/RTData</td>
				<td style="width:16%">(null)</td>
			</tr>
			<tr>
				<td style="width:16%">23</td>
				<td style="width:16%">45</td>
				<td style="width:16%">文件清理</td>
				<td style="width:16%">/discharge/RTImg</td>
				<td style="width:16%">(null)</td>
			</tr>
			<tr>
				<td style="width:16%">24</td>
				<td style="width:16%">45</td>
				<td style="width:16%">文件清理</td>
				<td style="width:16%">/ts/pd/RTImg</td>
				<td style="width:16%">(null)</td>
			</tr>
		</table>
	</div>
</div>	
