{ "cmd_device": "select id,协议类型,波特率,数据位,停止位,校验方式,硬件接口 from '1.设备' where 协议类型=3;", "result_device": [ [ "id", "协议类型", "波特率", "数据位", "停止位", "校验方式", "硬件接口" ], [ "5", "3", "9600", "8", "1", "无", "485-8" ], [ "1", "3", "9600", "8", "1", "无", "485-1" ], [ "2", "3", "9600", "8", "1", "无", "485-2" ], [ "3", "3", "9600", "8", "1", "无", "485-3" ], [ "4", "3", "9600", "8", "1", "无", "485-4" ] ], "cmd_interface": "select '2.命令'.id,设备id,命令,数据解析方式 from '2.命令','1.设备' where 设备id='1.设备'.id and 协议类型=3;", "result_interface": [ [ "id", "设备id", "命令", "数据解析方式" ], [ "2", "2", "01 03 05 00 00 32 C4 D3", null ], [ "3", "4", "01 04 00 c8 00 14 71 fb", null ], [ "4", "4", "01 04 00 00 00 0f b0 0e", null ], [ "11", "1", "04 03 00 03 00 0a 35 98", null ], [ "12", "3", "02 03 00 01 00 06 94 3b", null ], [ "13", "5", "01 03 00 00 00 08 44 0c", null ] ], "cmd_point": "select '3.点表'.id,命令id,位号,点类型,倍数,越限值,索引 from '1.设备','2.命令','3.点表' where '2.命令'.设备id='1.设备'.id and '3.点表'.命令id='2.命令'.id and '1.设备'.协议类型=3;", "result_point": [ [ "id", "命令id", "位号", "点类型", "倍数", "越限值", "索引" ], [ "4", "3", "5.0", "513", null, null, "5" ], [ "5", "3", "6.0", "514", null, null, "5" ], [ "12", "4", "2.0", "16385", "0.1", null, "8" ], [ "13", "4", "3.0", "16386", "0.1", null, "8" ], [ "14", "4", "13.0", "16387", "0.1", null, "10" ], [ "15", "4", "1.0", "16388", null, null, "5" ], [ "19", "2", null, "16417", null, null, "12" ], [ "20", "2", null, "16418", null, null, "12" ], [ "21", "2", null, "16419", null, null, "12" ], [ "22", "2", null, "16420", null, null, "12" ], [ "23", "2", null, "16421", null, null, "12" ], [ "24", "2", null, "16449", null, null, "12" ], [ "25", "2", null, "16450", null, null, "12" ], [ "26", "2", null, "16465", null, null, "12" ], [ "35", "2", null, "16467", "0.1", "1", "3" ], [ "45", "4", null, "16411", null, null, "212" ], [ "47", "11", "1.0", "16484", "0.1", "1", "13" ], [ "48", "11", "2.0", "16484", "0.1", "1", "14" ], [ "49", "11", "3.0", "16484", "0.1", "1", "15" ], [ "50", "11", "4.0", "16484", null, "1", "16" ], [ "51", "11", "5.0", "16484", null, "1", "17" ], [ "52", "11", "6.0", "16484", null, "1", "18" ], [ "53", "11", "7.0", "16484", null, "1", "19" ], [ "54", "11", "8.0", "16484", null, "1", "20" ], [ "55", "11", "9.0", "16484", null, "1", "21" ], [ "56", "11", "10.0", "16484", null, "1", "22" ], [ "57", "12", "1.0", "16485", "0.1", null, "23" ], [ "58", "12", "2.0", "16485", "0.1", null, "24" ], [ "59", "12", "3.0", "16485", "0.1", null, "25" ], [ "88", "13", "1.0", "16485", "0.1", "1", "26" ], [ "89", "13", "2.0", "16486", "0.1", "2", "26" ] ] }